# GHz S RI R 100

4.992000000000001e-02  3.4289706149999999e-01  5.8429898749999998e-01  6.9347813236517855e+00  1.3168143055247429e+01  9.8865775099329489e-04 -5.5546147406607882e-03  8.2502380000000000e-02 -6.1382119999999998e-02
5.120000000000000e-02  3.5316424449999995e-01  5.8650336005000003e-01  8.3294781024680287e+00  1.2144028424661027e+01  4.0721375138960133e-04 -5.6294815803072228e-03  8.9357030000000004e-02 -6.2039629999999998e-02
5.248000000000001e-02  3.6558781149999997e-01  5.8803192048999997e-01  9.4807755750137321e+00  1.1037096952887312e+01 -1.7332533962457727e-04 -5.6501752016800029e-03  9.5255409999999999e-02 -6.6080230000000004e-02
5.376000000000000e-02  3.7922395100000000e-01  5.8861565784999992e-01  1.0391353039593490e+01  9.9399325349500920e+00 -6.7036454409980428e-04 -5.5780788064022577e-03  9.9046729999999999e-02 -7.2336280000000003e-02
5.504000000000001e-02  3.9413008550000000e-01  5.8818667685000003e-01  1.1154324155631578e+01  8.7888626093665749e+00 -1.1810772039246968e-03 -5.4848222406975048e-03  1.0118010000000000e-01 -8.0603240000000007e-02
5.632000000000000e-02  4.0937615400000005e-01  5.8667463800000008e-01  1.1739339405104721e+01  7.6959189825169361e+00 -1.5225286033793189e-03 -5.2457004354783971e-03  1.0142430000000000e-01 -8.9573219999999995e-02
5.760000000000001e-02  4.2570127949999997e-01  5.8415680049999996e-01  1.2213895877943118e+01  6.5780616503137139e+00 -1.9728335056540384e-03 -5.1778652777961153e-03  9.9989640000000005e-02 -9.9623110000000001e-02
5.888000000000000e-02  4.4224761600000001e-01  5.8027105999999995e-01  1.2566600316134899e+01  5.4909248550618575e+00 -2.3277600269056989e-03 -4.9040641983111727e-03  9.7042879999999998e-02 -1.0989560000000000e-01
6.016000000000001e-02  4.5781658949999998e-01  5.7602748650000002e-01  1.2810865262526969e+01  4.4836274864737726e+00 -2.5848690730032736e-03 -4.7526115424332376e-03  9.2187370000000005e-02 -1.1966120000000000e-01
6.144000000000000e-02  4.7425804150000006e-01  5.7041323850000003e-01  1.2978970707365914e+01  3.4722857499400130e+00 -2.8956992132986126e-03 -4.5835022888077196e-03  8.6083240000000005e-02 -1.2934280000000001e-01
6.272000000000000e-02  4.8961476650000002e-01  5.6426420099999997e-01  1.3067301142968855e+01  2.5356276416856827e+00 -3.2071445364935834e-03 -4.3773267805551144e-03  7.9042249999999994e-02 -1.3834579999999999e-01
6.400000000000000e-02  5.0515809450000004e-01  5.5715386150000001e-01  1.3094928017041845e+01  1.6071566561602366e+00 -3.4561745340627122e-03 -4.1408038048889014e-03  7.0723220000000003e-02 -1.4691440000000000e-01
6.528000000000000e-02  5.2058997250000005e-01  5.4908679149999995e-01  1.3059934716654487e+01  7.1818099968981219e-01 -3.6485294988556692e-03 -3.9291406530395419e-03  6.1108839999999998e-02 -1.5499959999999999e-01
6.656000000000001e-02  5.3464697300000008e-01  5.4094462349999994e-01  1.2978587172647797e+01 -9.9327968375784267e-02 -3.8421319414319965e-03 -3.7306957310936149e-03  5.1328819999999997e-02 -1.6183570000000000e-01
6.784000000000000e-02  5.4894327450000002e-01  5.3182284900000010e-01  1.2849128153959859e+01 -9.1235506031698255e-01 -4.1329952247042582e-03 -3.4757090659997712e-03  4.0523419999999997e-02 -1.6836440000000000e-01
6.912000000000000e-02  5.6254661699999997e-01  5.2272860900000007e-01  1.2684573799376029e+01 -1.6553785950628483e+00 -4.1869070963115864e-03 -3.2741560561971392e-03  2.9791209999999999e-02 -1.7348300000000000e-01
7.040000000000000e-02  5.7590176999999998e-01  5.1282400299999997e-01  1.2478401473103938e+01 -2.3977519309812778e+00 -4.4471394330616622e-03 -3.1313547103656659e-03  1.8048729999999999e-02 -1.7797560000000001e-01
7.168000000000001e-02  5.8880168799999999e-01  5.0272091000000008e-01  1.2239072627019301e+01 -3.1019741407646526e+00 -4.6259166041529541e-03 -2.8181747835257665e-03  6.2664369999999997e-03 -1.8156190000000000e-01
7.296000000000001e-02  6.0064689299999996e-01  4.9270629999999999e-01  1.1978341567856454e+01 -3.7467028608527260e+00 -4.6593148130633132e-03 -2.6376048846121322e-03 -5.6171579999999997e-03 -1.8379660000000000e-01
7.424000000000000e-02  6.1245080950000008e-01  4.8206671550000002e-01  1.1682702556094734e+01 -4.3822517085754003e+00 -4.8753956145281361e-03 -2.4583447595892898e-03 -1.7745770000000001e-02 -1.8559899999999999e-01
7.552000000000000e-02  6.2340076850000004e-01  4.7150447500000003e-01  1.1375588332645210e+01 -4.9647154339393111e+00 -5.0283630345527271e-03 -2.1796310557420538e-03 -2.9240809999999999e-02 -1.8645790000000001e-01
7.680000000000001e-02  6.3407219749999999e-01  4.6070545700000004e-01  1.1039016747798234e+01 -5.5367103726970770e+00 -5.0495271647777095e-03 -1.9778069411995145e-03 -4.1582389999999997e-02 -1.8634780000000001e-01
7.808000000000001e-02  6.4492643499999991e-01  4.4952112249999998e-01  1.0686625628621197e+01 -6.0786140288280572e+00 -5.1148071921061737e-03 -1.7343296410510098e-03 -5.3523590000000003e-02 -1.8585470000000001e-01
7.936000000000000e-02  6.5447314299999992e-01  4.3906733200000003e-01  1.0332634326798335e+01 -6.5718292818550141e+00 -5.2672208060997403e-03 -1.5749306959427962e-03 -6.5419400000000003e-02 -1.8471779999999999e-01
8.064000000000000e-02  6.6436395199999998e-01  4.2779830249999995e-01  9.9522715482817983e+00 -7.0597777914436586e+00 -5.3230594729751233e-03 -1.2965873675564775e-03 -7.7646380000000001e-02 -1.8293090000000001e-01
8.192000000000001e-02  6.7336597049999991e-01  4.1687321799999999e-01  9.5683890750512273e+00 -7.5038764174999057e+00 -5.3644446651110195e-03 -1.0993579126699357e-03 -8.8943640000000004e-02 -1.7991180000000001e-01
8.320000000000001e-02  6.8220015344999996e-01  4.0557274700000001e-01  9.1606582942542900e+00 -7.9428408826393113e+00 -5.4848262712061573e-03 -8.2731630577541609e-04 -1.0083440000000000e-01 -1.7629590000000001e-01
8.448000000000000e-02  6.9084467814999995e-01  3.9413258750000002e-01  8.7379327484768670e+00 -8.3538131116318866e+00 -5.5603947729115635e-03 -6.3029085826631439e-04 -1.1235770000000000e-01 -1.7182629999999999e-01
8.576000000000000e-02  6.9861272144999997e-01  3.8324888850000000e-01  8.3206408940487933e+00 -8.7243169124303730e+00 -5.5439061741451440e-03 -4.0921902136823265e-04 -1.2257759999999999e-01 -1.6645450000000001e-01
8.704000000000001e-02  7.0642829515000005e-01  3.7182745650000004e-01  7.8755363378856318e+00 -9.0809076094915557e+00 -5.5919267148943370e-03 -1.8475564720335259e-04 -1.3356129999999999e-01 -1.6073830000000000e-01
8.832000000000001e-02  7.1357341620000003e-01  3.6087774800000000e-01  7.4397902692607962e+00 -9.4040118507160866e+00 -5.6111426245157945e-03  3.7713922012246353e-05 -1.4325520000000000e-01 -1.5437310000000001e-01
8.960000000000000e-02  7.2059565720000007e-01  3.4968450900000003e-01  6.9785612036128475e+00 -9.7126046344450732e+00 -5.6451425812969434e-03  2.7397482269214815e-04 -1.5275790000000000e-01 -1.4780509999999999e-01
9.088000000000000e-02  7.2738231132999998e-01  3.3858694400000000e-01  6.5131609150626799e+00 -9.9984670464287486e+00 -5.6490313150400796e-03  4.8972879940270618e-04 -1.6188140000000001e-01 -1.3970540000000001e-01
9.216000000000001e-02  7.3337591925000001e-01  3.2745046499999997e-01  6.0588262819526557e+00 -1.0250201373882526e+01 -5.6389762566116065e-03  7.0623846820138606e-04 -1.7043810000000001e-01 -1.3237399999999999e-01
9.344000000000001e-02  7.3923583769999990e-01  3.1652650599999999e-01  5.5835691370047815e+00 -1.0485367835899710e+01 -5.6882562959594497e-03  9.0049205005716872e-04 -1.7856720000000001e-01 -1.2386220000000001e-01
9.472000000000001e-02  7.4521543453500005e-01  3.0561513949999997e-01  5.1206138115719213e+00 -1.0690972426137185e+01 -5.6428611012674448e-03  1.1000647578216134e-03 -1.8567239999999999e-01 -1.1540950000000000e-01
9.600000000000000e-02  7.5015534335000000e-01  2.9489258200000001e-01  4.6357318119612483e+00 -1.0880243910389423e+01 -5.6385144451728125e-03  1.2831146004250215e-03 -1.9278660000000000e-01 -1.0609070000000000e-01
9.728000000000001e-02  7.5555754914999995e-01  2.8407524350000002e-01  4.1484799439734283e+00 -1.1053296486401583e+01 -5.6035893805898383e-03  1.5492005580285905e-03 -1.9917140000000000e-01 -9.6641710000000006e-02
9.856000000000001e-02  7.6006847159999991e-01  2.7354138350000001e-01  3.6805958014329856e+00 -1.1193376673207018e+01 -5.5831814303566570e-03  1.8018420044876799e-03 -2.0470070000000001e-01 -8.7197739999999996e-02
9.984000000000001e-02  7.6494255275000000e-01  2.6265449499999999e-01  3.1915429324734839e+00 -1.1321953293342716e+01 -5.5576016304151989e-03  1.9678786670169084e-03 -2.0991960000000001e-01 -7.7074560000000000e-02
1.011200000000000e-01  7.6895892339999994e-01  2.5252572200000001e-01  2.7244631238966410e+00 -1.1421578486982904e+01 -5.4840244828269699e-03  2.1575358780182834e-03 -2.1453820000000001e-01 -6.7483879999999996e-02
1.024000000000000e-01  7.7308092900000003e-01  2.4178107699999998e-01  2.2344343061577452e+00 -1.1506072302612484e+01 -5.4118981062217016e-03  2.4228271395236802e-03 -2.1855759999999999e-01 -5.7426379999999999e-02
1.036800000000000e-01  7.7686278409999998e-01  2.3130695349999997e-01  1.7493673132709779e+00 -1.1567647868224988e+01 -5.3839526098331068e-03  2.5904858342982728e-03 -2.2178390000000001e-01 -4.6724570000000000e-02
1.049600000000000e-01  7.8067473700000001e-01  2.2143320100000000e-01  1.2833054697584672e+00 -1.1610554824864675e+01 -5.3706906100199174e-03  2.8015003570972499e-03 -2.2469890000000001e-01 -3.6984980000000001e-02
1.062400000000000e-01  7.8393085600000001e-01  2.1111889000000000e-01  8.0494126932978771e-01 -1.1632853790762782e+01 -5.2819033834363323e-03  3.0286196611018197e-03 -2.2688929999999999e-01 -2.5936560000000001e-02
1.075200000000000e-01  7.8715244349999991e-01  2.0100567499999999e-01  3.4498219574512101e-01 -1.1638350626747693e+01 -5.1756803178422484e-03  3.2159774315614537e-03 -2.2808870000000001e-01 -1.5736679999999999e-02
1.088000000000000e-01  7.9020013400000000e-01  1.9134750349999999e-01 -1.2236002722928778e-01 -1.1623481797484937e+01 -5.1247120610543222e-03  3.4788196287302113e-03 -2.2907269999999999e-01 -5.1058770000000000e-03
1.100800000000000e-01  7.9287789050000002e-01  1.8134416949999999e-01 -5.9046890668956753e-01 -1.1591950845451656e+01 -4.9550032515890356e-03  3.5403898203311803e-03 -2.2945099999999999e-01  5.6455079999999996e-03
1.113600000000000e-01  7.9555052199999998e-01  1.7165449550000000e-01 -1.0347652214170564e+00 -1.1539328807323892e+01 -4.9018256396632922e-03  3.7929627764274427e-03 -2.2911450000000000e-01  1.5789750000000002e-02
1.126400000000000e-01  7.9786973600000000e-01  1.6171289999999999e-01 -1.4894619426965225e+00 -1.1475434002179773e+01 -4.7967729065027508e-03  3.9896152533937402e-03 -2.2837689999999999e-01  2.5998400000000001e-02
1.139200000000000e-01  8.0006625249999996e-01  1.5201520650000000e-01 -1.9242777487110967e+00 -1.1389835756468658e+01 -4.7235165732611457e-03  4.1109808692855777e-03 -2.2703970000000001e-01  3.6180749999999998e-02
1.152000000000000e-01  8.0251936199999996e-01  1.4247421700000001e-01 -2.3655077910484925e+00 -1.1290825250753356e+01 -4.5282286002505043e-03  4.3483479890271707e-03 -2.2514170000000000e-01  4.6322849999999999e-02
1.164800000000000e-01  8.0450045400000003e-01  1.3269313850000000e-01 -2.7988561312890030e+00 -1.1171837422834615e+01 -4.4518397839682436e-03  4.5427876460324233e-03 -2.2281550000000000e-01  5.6638029999999999e-02
1.177600000000000e-01  8.0644653349999995e-01  1.2360015400000000e-01 -3.2085214148179100e+00 -1.1043405264614313e+01 -4.3041886048566461e-03  4.6755762184209383e-03 -2.2043009999999999e-01  6.5909270000000006e-02
1.190400000000000e-01  8.0812085550000001e-01  1.1438807449999999e-01 -3.6280468781463950e+00 -1.0894216269674990e+01 -4.1240526573746265e-03  4.7785613713532907e-03 -2.1676780000000001e-01  7.5386830000000002e-02
1.203200000000000e-01  8.0955948000000000e-01  1.0510075850000000e-01 -4.0226484537836509e+00 -1.0740178572826395e+01 -3.9953982554929964e-03  5.0670146225832340e-03 -2.1328069999999999e-01  8.4149699999999994e-02
1.216000000000000e-01  8.1144071300000009e-01  9.5796084000000004e-02 -4.4258054557878390e+00 -1.0562954137515911e+01 -3.8924592059227771e-03  5.1408562281076266e-03 -2.0897089999999999e-01  9.3202540000000000e-02
1.228800000000000e-01  8.1276583550000003e-01  8.6732217000000000e-02 -4.8155069228528289e+00 -1.0372055034874736e+01 -3.7204446626653972e-03  5.3152071228807253e-03 -2.0407870000000000e-01  1.0192780000000000e-01
1.241600000000000e-01  8.1408239750000000e-01  7.7874082499999997e-02 -5.1812511879071490e+00 -1.0177505352054332e+01 -3.5555059248353173e-03  5.4724775705115502e-03 -1.9903520000000000e-01  1.1021460000000000e-01
1.254400000000000e-01  8.1543544299999993e-01  6.8894584699999997e-02 -5.5538326805607960e+00 -9.9602243782498032e+00 -3.4071699128061404e-03  5.5564095898034743e-03 -1.9361840000000000e-01  1.1817350000000000e-01
1.267200000000000e-01  8.1663049450000003e-01  6.0206796750000006e-02 -5.8984394026051081e+00 -9.7418892496558804e+00 -3.2381018127952874e-03  5.7081352596096242e-03 -1.8773360000000000e-01  1.2548770000000001e-01
1.280000000000000e-01  8.1748639950000002e-01  5.1518830585000001e-02 -6.2459221400605376e+00 -9.5024056178968390e+00 -3.0374228576848794e-03  5.9031755331148163e-03 -1.8131490000000000e-01  1.3282459999999999e-01
1.292800000000000e-01  8.1858980399999992e-01  4.2488640949999996e-02 -6.5826158422486252e+00 -9.2521570632116923e+00 -2.8911085346537938e-03  6.0405639058256294e-03 -1.7464499999999999e-01  1.3971760000000000e-01
1.305600000000000e-01  8.1927099799999992e-01  3.4373065999999994e-02 -6.8971225135420653e+00 -8.9999596515269165e+00 -2.6926549860051361e-03  6.1490004984875394e-03 -1.6796710000000001e-01  1.4616850000000001e-01
1.318400000000000e-01  8.2015032649999997e-01  2.5510240499999996e-02 -7.2130987648588443e+00 -8.7295905855151403e+00 -2.6114136494369824e-03  6.1978620013315991e-03 -1.6089020000000001e-01  1.5206220000000001e-01
1.331200000000000e-01  8.2076732850000000e-01  1.7141914000000001e-02 -7.5029704722918487e+00 -8.4588783605824549e+00 -2.3705185618320148e-03  6.3579127221153704e-03 -1.5339949999999999e-01  1.5769900000000001e-01
1.344000000000000e-01  8.2137963649999990e-01  8.3433515000000055e-03 -7.7911635082263171e+00 -8.1693047693683987e+00 -2.2091141558263391e-03  6.4792052938767112e-03 -1.4596410000000001e-01  1.6312689999999999e-01
1.356800000000000e-01  8.2177613400000005e-01 -1.5199299999999957e-04 -8.0721785618036019e+00 -7.8706346029677681e+00 -1.9495880773293124e-03  6.5994480242000239e-03 -1.3798530000000001e-01  1.6812769999999999e-01
1.369600000000000e-01  8.2223498849999999e-01 -8.5130289999999983e-03 -8.3246969292563566e+00 -7.5786158365043690e+00 -1.8344655425639100e-03  6.6910279690159061e-03 -1.3031560000000000e-01  1.7208019999999999e-01
1.382400000000000e-01  8.2260523149999998e-01 -1.6992354999999997e-02 -8.5824761004504637e+00 -7.2648317576306241e+00 -1.6307955469822869e-03  6.7178716516180566e-03 -1.2217799999999999e-01  1.7644570000000001e-01
1.395200000000000e-01  8.2299665550000001e-01 -2.5092295000000001e-02 -8.8189538212826815e+00 -6.9536386594245032e+00 -1.4069731637003386e-03  6.8388202866410284e-03 -1.1421520000000000e-01  1.7994019999999999e-01
1.408000000000000e-01  8.2320670450000000e-01 -3.3505282499999997e-02 -9.0487005926647832e+00 -6.6248989185752709e+00 -1.1972604598408652e-03  6.9356389734666866e-03 -1.0586050000000000e-01  1.8296309999999999e-01
1.420800000000000e-01  8.2326852699999997e-01 -4.1789749500000001e-02 -9.2681530206836573e+00 -6.2906618467663833e+00 -9.1645567860710036e-04  6.9633118801911359e-03 -9.7155790000000006e-02  1.8595770000000000e-01
1.433600000000000e-01  8.2338590750000007e-01 -4.9592413999999994e-02 -9.4642214981593735e+00 -5.9668896017656659e+00 -7.4456152735028543e-04  7.0460326962775649e-03 -8.8880290000000001e-02  1.8825200000000000e-01
1.446400000000000e-01  8.2346719450000005e-01 -5.7566926500000004e-02 -9.6578271227162169e+00 -5.6196639683358729e+00 -5.8343634084193768e-04  7.1166839067159223e-03 -8.0427159999999998e-02  1.9017680000000001e-01
1.459200000000000e-01  8.2331172499999994e-01 -6.5132537500000004e-02 -9.8299676724020042e+00 -5.2845184057345165e+00 -2.7780309173442439e-04  7.1559800932881577e-03 -7.1886829999999999e-02  1.9147620000000001e-01
1.472000000000000e-01  8.2319594350000003e-01 -7.3204351000000001e-02 -9.9953718279154611e+00 -4.9314186948520522e+00 -9.4903523464154112e-05  7.1552535410704882e-03 -6.3125290000000001e-02  1.9237299999999999e-01
1.484800000000000e-01  8.2260988049999995e-01 -8.1068075499999989e-02 -1.0147764440837626e+01 -4.5733227795857578e+00  1.0902801677369443e-04  7.1977964084285430e-03 -5.4530960000000003e-02  1.9267819999999999e-01
1.497600000000000e-01  8.2229756900000006e-01 -8.8504791999999999e-02 -1.0283906891399988e+01 -4.2262737107192283e+00  3.3807251091392572e-04  7.2692512457237192e-03 -4.6205059999999999e-02  1.9304009999999999e-01
1.510400000000000e-01  8.2193061300000003e-01 -9.6615166500000016e-02 -1.0411277823763086e+01 -3.8618095917815687e+00  5.7084561163826559e-04  7.2787114859278572e-03 -3.7687930000000001e-02  1.9291970000000000e-01
1.523200000000000e-01  8.2129785899999996e-01 -1.0412189099999999e-01 -1.0516634471418183e+01 -3.5094413121535633e+00  7.7718647256901042e-04  7.2651363792319602e-03 -2.9641930000000000e-02  1.9191700000000000e-01
1.536000000000000e-01  8.2069487050000001e-01 -1.1207033599999999e-01 -1.0616934174216944e+01 -3.1406097481819044e+00  1.0418993207273969e-03  7.2963419207245379e-03 -2.1096839999999999e-02  1.9070909999999999e-01
1.548800000000000e-01  8.2027720500000001e-01 -1.1983668449999998e-01 -1.0704452992656437e+01 -2.7694502472652229e+00  1.2755180603508528e-03  7.2982668775149620e-03 -1.3139959999999999e-02  1.8926519999999999e-01
1.561600000000000e-01  8.1951869300000002e-01 -1.2734874750000000e-01 -1.0777404987139418e+01 -2.4113131076735854e+00  1.4790844152915575e-03  7.3282938841353357e-03 -5.0258500000000001e-03  1.8699640000000001e-01
1.574400000000000e-01  8.1887439749999991e-01 -1.3506148299999998e-01 -1.0839946389904348e+01 -2.0391987156174540e+00  1.7300170604321633e-03  7.2373529517176126e-03  2.8722930000000002e-03  1.8459510000000001e-01
1.587200000000000e-01  8.1800739749999996e-01 -1.4228177600000003e-01 -1.0887208487920041e+01 -1.6796376043898633e+00  1.8815091092288776e-03  7.2666530525669270e-03  1.0312190000000001e-02  1.8242100000000000e-01
1.600000000000000e-01  8.1730715700000001e-01 -1.4981540250000000e-01 -1.0924653681071167e+01 -1.3088832615166661e+00  2.1826401486493932e-03  7.2618317156900852e-03  1.7936460000000001e-02  1.7904940000000000e-01
1.612800000000000e-01  8.1625833500000000e-01 -1.5724129949999999e-01 -1.0948670916447558e+01 -9.3773851084744042e-01  2.4141083007796159e-03  7.1866167673752708e-03  2.5300469999999999e-02  1.7553890000000000e-01
1.625600000000000e-01  8.1536480850000004e-01 -1.6467044800000000e-01 -1.0962024557299587e+01 -5.7664703316206489e-01  2.5245077511554213e-03  7.2044058769336504e-03  3.2121360000000002e-02  1.7209160000000001e-01
1.638400000000000e-01  8.1415325350000001e-01 -1.7203230100000000e-01 -1.0963412890753768e+01 -2.0904989731812834e-01  2.8314435008533756e-03  7.1452890630206867e-03  3.9183700000000002e-02  1.6800319999999999e-01
1.651200000000000e-01  8.1343240950000006e-01 -1.7934962750000000e-01 -1.0954222199654618e+01  1.4453776674082955e-01  3.0712184606062659e-03  7.1108236885561605e-03  4.5706990000000003e-02  1.6383320000000001e-01
1.664000000000000e-01  8.1209909349999998e-01 -1.8687199999999998e-01 -1.0930431521290918e+01  5.1243978228007636e-01  3.2334839105393918e-03  6.9444483218787439e-03  5.2095250000000003e-02  1.5944140000000001e-01
