!Created with skrf (http://scikit-rf.org).
# GHz S RI R 100.0 
!freq ReS11 ImS11 ReS21 ImS21 ReS12 ImS12 ReS22 ImS22
49920000.0 0.3430083461484391 0.5843945712060851 6.958374444922083 13.152770096067787 0.0009896623367991418 -0.00556980085074068 0.08266323219034194 -0.06137280912852514
51200000.0 0.35316424449999995 0.58650336005 8.329478102468029 12.144028424661027 0.00040721375138960133 -0.005629481580307223 0.08935703 -0.06203963
52480000.0 0.3653896778419826 0.587995909143056 9.465474921262178 11.054674866184802 -0.00015206971324772302 -0.0056466063084163465 0.09513026363177784 -0.0659596687545794
53760000.0 0.37932061787793236 0.5886247443186017 10.397933570337713 9.931117690593721 -0.0006770901864134679 -0.005560882193668925 0.09908799333833365 -0.07240950271497526
55040000.0 0.39403381048486874 0.5881899065997538 11.149410230367929 8.797379140969005 -0.0011897918755432175 -0.005485474590568114 0.10120252563788276 -0.0805237153942833
56320000.0 0.40959453010348146 0.5867068508532931 11.748128943413517 7.678528123093476 -0.0015168445137430837 -0.005279852332536047 0.10136617018808797 -0.08974174486226308
57600000.0 0.4257012795 0.5841568005 12.213895877943118 6.578061650313714 -0.0019728335056540384 -0.005177865277796115 0.09998964 -0.09962311
58880000.0 0.44199463071492767 0.5803462979948013 12.561178178716158 5.506589724318252 -0.002317893501298372 -0.004950342256690809 0.09701729944637576 -0.10969820547275219
60160000.0 0.4579288624537711 0.5759961317796469 12.8124044431286 4.475880617123879 -0.0025793718834292365 -0.004744606499758666 0.09213743836986743 -0.11972598524293712
61440000.0 0.4740664443063101 0.570460635253919 12.97752404122078 3.479578873521309 -0.002901755828766089 -0.004587226022089711 0.08616484004118861 -0.12926777582182766
62720000.0 0.4898875323330777 0.5642295407149678 13.069082060880376 2.521466047070434 -0.0031924476680812346 -0.004371197186503485 0.07890811265580468 -0.13853483546680245
64000000.0 0.5051580945 0.5571538615 13.094928017041843 1.6071566561602366 -0.0034561745340627122 -0.004140803804888901 0.07072322 -0.1469144
65280000.0 0.5204779844495747 0.5492189385460402 13.061460044104212 0.7299645888782834 -0.0036445347236646105 -0.003951952023945612 0.061286366035998484 -0.15484270809835568
66560000.0 0.5347801827176014 0.5409030341381146 12.977595752358676 -0.10559186240919304 -0.003832550366566705 -0.0037370916651581956 0.05124699611645814 -0.16187931155686536
67840000.0 0.5488067915508494 0.5318855196776894 12.850332538825437 -0.9064910204748465 -0.004129394741474515 -0.0034691582326242154 0.04063913517871726 -0.16831658547263814
69120000.0 0.5627157755684974 0.5226119644700428 12.68120418917144 -1.6664625285378927 -0.004217881102888524 -0.0032846833001132503 0.029598500445545472 -0.17356741767664
70400000.0 0.57590177 0.512824003 12.478401473103938 -2.3977519309812774 -0.004447139433061662 -0.003131354710365666 0.01804873 -0.1779756
71680000.0 0.5886676260120792 0.5028222289149294 12.242122274406823 -3.092031979929239 -0.004600154689348033 -0.0028365517665334856 0.006362248434963219 -0.18139071682406846
72960000.0 0.6007506924971445 0.4926189767103424 11.976260153455973 -3.752087702003711 -0.004674340078188461 -0.00263370367354783 -0.005710724071479607 -0.1838717545845709
74240000.0 0.6123930482562975 0.48212016967066956 11.685273245724613 -4.37791566398499 -0.004888206127898946 -0.0024490830687064666 -0.01764524451600818 -0.18564017715634493
75520000.0 0.6235271446880021 0.4713633916677972 11.370883245009072 -4.974228795678033 -0.0050135978630231086 -0.002180284460453618 -0.029400339368407594 -0.18638828486761158
76800000.0 0.6340721975 0.46070545700000004 11.039016747798234 -5.536710372697076 -0.0050495271647777095 -0.0019778069411995145 -0.04158239 -0.1863478
78080000.0 0.6446557289214722 0.4497750581443063 10.69215041803814 -6.069265297328296 -0.005118104371552643 -0.0017259956020056046 -0.05345541939312473 -0.18582274953990724
79360000.0 0.6545883261830185 0.4389758639387471 10.329891383099332 -6.57583473049331 -0.005270095616927802 -0.0015649862392648581 -0.0654745246136647 -0.18473469240137694
80640000.0 0.6642936473661019 0.42790206273440323 9.955058870260208 -7.0561199267484485 -0.005332873119804711 -0.001298705505817802 -0.07759459784953898 -0.18297555256620185
81920000.0 0.6734513990532179 0.41665524137454013 9.562801076841957 -7.511059155748892 -0.005384566595116694 -0.001092368769982246 -0.08921381391251619 -0.17988835205370596
83200000.0 0.68220015345 0.405572747 9.160658294254288 -7.942840882639311 -0.005484826271206157 -0.0008273163057754161 -0.1008344 -0.1762959
84480000.0 0.6906870887992662 0.39419408703118936 8.743942869359621 -8.347378991383579 -0.005542430099894931 -0.0006343424773568626 -0.11214011932678918 -0.17198543036869457
85760000.0 0.6987372061568746 0.38310847824627087 8.317333675352927 -8.726930289927854 -0.005538936217499999 -0.00039824300876833285 -0.12265857744668211 -0.1664261930518585
87040000.0 0.7063788021983703 0.3719083770313909 7.878817010222572 -9.0784291006541 -0.005597394834475243 -0.00017820071195132187 -0.13347943335506499 -0.1607737402928978
88320000.0 0.7138118078221479 0.36068105350324103 7.4323149811628975 -9.4098419686764 -0.005642602933913 4.50690884716839e-05 -0.14341185588153774 -0.15433236668816183
89600000.0 0.7205956572000001 0.34968450900000003 6.9785612036128475 -9.712604634445073 -0.0056451425812969434 0.00027397482269214815 -0.1527579 -0.1478051
90880000.0 0.7272041688670566 0.3387733327844128 6.520520275779783 -9.994082116615134 -0.005637751666383714 0.0004625328973532902 -0.1616749380164916 -0.13994884826115467
92160000.0 0.7334237324005483 0.3274255587942385 6.055567260250955 -10.251631579242694 -0.005642139637556445 0.0007109953658635476 -0.17051070391742018 -0.13231718265604123
93440000.0 0.7391867276234212 0.3166472551484977 5.587098914783841 -10.483609128298266 -0.005694625516507189 0.000915872219670371 -0.17848174156667349 -0.12401720008190784
94720000.0 0.7451261004893986 0.3055427881702251 5.112663650066432 -10.694163503261393 -0.005662041096151025 0.0011094395567009907 -0.1858171296266166 -0.11516714613024168
96000000.0 0.75015534335 0.294892582 4.635731811961248 -10.880243910389423 -0.0056385144451728125 0.0012831146004250215 -0.1927866 -0.1060907
97280000.0 0.7555062535560678 0.28420258226810863 4.156632505802642 -11.051242339665636 -0.005620721111279682 0.0015511250567234152 -0.19916974641696344 -0.09675582748297717
98560000.0 0.7601120701077313 0.27348633583713583 3.676756906962564 -11.194507344302936 -0.005578795612932365 0.0018045080736223023 -0.20472008434665603 -0.08713086417925667
99840000.0 0.7649312181912858 0.262720133890638 3.1957182415525294 -11.320948656103292 -0.005542161505739335 0.0019755663106674607 -0.20990697955887525 -0.07709571876586127
101120000.0 0.7689027056308608 0.25228890013674 2.7157839474943017 -11.422298723243834 -0.005513329593416003 0.002152535366227537 -0.21465108511830092 -0.06726843694012878
102400000.0 0.773080929 0.241781077 2.234434306157745 -11.506072302612484 -0.005411898106221702 0.00242282713952368 -0.2185576 -0.05742638
103680000.0 0.7769134103427927 0.23155936244542505 1.75665914799373 -11.568260155966508 -0.005365098232200973 0.0025949495473300264 -0.22181132910369422 -0.04691775006258084
104960000.0 0.7806386674084704 0.22137717515006805 1.2794439273143448 -11.610763231627029 -0.005379009293295718 0.0028108203557516433 -0.22472120535874185 -0.03689438881556334
106240000.0 0.7839685048135459 0.21111061315043256 0.8078120451543217 -11.632957794735304 -0.00528459363605976 0.0030153174240083814 -0.2268516659015327 -0.025998902652733233
107520000.0 0.7872256244885345 0.20097665541709928 0.3383569950687211 -11.639119595463528 -0.005190756509074453 0.0032318947835066874 -0.2280815783977803 -0.015496843801631886
108800000.0 0.790200134 0.1913475035 -0.12236002722928778 -11.623481797484937 -0.005124712061054322 0.0034788196287302113 -0.2290727 -0.005105877
110080000.0 0.792806821250956 0.18152971574963633 -0.5840930114266848 -11.592909045789431 -0.004980592693446417 0.003540082608753348 -0.2294396158598799 0.0054180713716687765
111360000.0 0.7955652847942409 0.17157137469226463 -1.0381712394306561 -11.538855620477445 -0.004901459445890492 0.003791568602334612 -0.22916371597851048 0.015804029533842225
112640000.0 0.7978505288552166 0.16178864605392462 -1.4855720456716908 -11.476207267395758 -0.00481025014366781 0.003960987379627076 -0.22834650604256143 0.025921699237814046
113920000.0 0.8001090082660783 0.15194538456376722 -1.9304585566387311 -11.388173179378592 -0.004728376588399497 0.004107874892947766 -0.2270302080396712 0.03632812589263943
115200000.0 0.802519362 0.142474217 -2.3655077910484925 -11.290825250753356 -0.004528228600250504 0.004348347989027171 -0.2251417 0.04632285
116480000.0 0.8043656700105432 0.13291441204140836 -2.79197140018203 -11.172785068108201 -0.0044780501307307985 0.004544852950423332 -0.2228528796856562 0.056372494605586715
117760000.0 0.8064617447297965 0.12354543626426653 -3.2118054047035427 -11.042080577572282 -0.0043014013598399225 0.004671329807347934 -0.22038514634110992 0.06595733341652728
119040000.0 0.8081334147425187 0.11446032995471632 -3.6250996220525584 -10.895361709762271 -0.004128670258239647 0.004782659861095255 -0.21680399329523542 0.07533483100375124
120320000.0 0.809660589048859 0.10497293228622986 -4.030091875100335 -10.737087064857011 -0.0040345764653202535 0.005063804266956993 -0.21322174877766611 0.08424271924942514
121600000.0 0.8114407130000001 0.095796084 -4.425805455787839 -10.562954137515911 -0.0038924592059227767 0.005140856228107627 -0.2089709 0.09320254
122880000.0 0.8126699319408104 0.08691943689005056 -4.809661487508614 -10.37533029129431 -0.0037715596724340384 0.005299915198655149 -0.20415849537697256 0.10184703689287512
124160000.0 0.814120971937994 0.07778866015099584 -5.184615649864939 -10.175507209515601 -0.003559247999973947 0.005472554975585211 -0.19894578852330747 0.11022003585655893
125440000.0 0.8154311538977632 0.06900460290875901 -5.551385749314219 -9.961959475768033 -0.0034185532436119452 0.0055531477569087835 -0.1936452541689175 0.11814205794196914
126720000.0 0.8165582768142897 0.060060439937696795 -5.903782106581672 -9.739325958104285 -0.0032353067753846452 0.0057255191970118375 -0.18775005665138417 0.12557464992556783
128000000.0 0.8174863995 0.051518830585 -6.245922140060537 -9.502405617896839 -0.0030374228576848794 0.005903175533114816 -0.1813149 0.1328246
129280000.0 0.8186327001068414 0.042715872613207334 -6.578522384951452 -9.255875055009605 -0.0029079352776537003 0.006042873969163414 -0.17468644507797304 0.13961924230473946
130560000.0 0.8192870330785901 0.03425755323261108 -6.899113433890934 -8.997890306956167 -0.0026939594717871975 0.006145051743800372 -0.16789852197924568 0.1462098236770366
131840000.0 0.8201219275036412 0.025610070270683093 -7.210269959890827 -8.731497314082722 -0.0026065051691794576 0.00621241390667622 -0.16092737620289577 0.1520576016417181
133120000.0 0.8207267798605818 0.016987276516265165 -7.508152007035738 -8.454278222963286 -0.002376101053640975 0.0063514480045649725 -0.15325620857898656 0.15771802533850077
134400000.0 0.8213796364999999 0.008343351500000006 -7.791163508226316 -8.169304769368399 -0.002209114155826339 0.006479205293876711 -0.1459641 0.1631269
135680000.0 0.8217840750335988 -7.93663189022686e-05 -8.06736635988457 -7.874921432639884 -0.0019751217131971253 0.006579690091540442 -0.1381127303125281 0.16800830935069688
136960000.0 0.8222173946810093 -0.008584599944633344 -8.326514102695613 -7.575909064295544 -0.0018316508955185285 0.006687169673304039 -0.13018194622305146 0.17218054449589454
138240000.0 0.8225894240694991 -0.016963208085403452 -8.580955267623494 -7.267123749207056 -0.001638142388883851 0.006729766271392539 -0.12230580731160133 0.17641258081303915
139520000.0 0.8230207145983631 -0.025226978752448097 -8.821910533434892 -6.949047125852523 -0.0014026617476084833 0.0068286814604215556 -0.11406677780544555 0.17992112138425212
140800000.0 0.8232067045 -0.0335052825 -9.048700592664783 -6.624898918575271 -0.0011972604598408652 0.006935638973466687 -0.1058605 0.1829631
142080000.0 0.8233433325951273 -0.04169274792767881 -9.264989275241788 -6.29755983538925 -0.0009387693127824733 0.006960285457790348 -0.09732440818759357 0.18590056204803015
143360000.0 0.8234201977228692 -0.04964999425830121 -9.465857055059539 -5.964245514090404 -0.0007395098097083476 0.007039581023787972 -0.0888142803348944 0.188242281395732
144640000.0 0.8234486127603746 -0.05751527758479699 -9.656531891538378 -5.622458481043147 -0.0005877481849125269 0.007123988524205033 -0.08046359982516373 0.1901412170561983
145920000.0 0.8232931783130301 -0.06525515785422176 -9.832883565595273 -5.279395921611017 -0.00029320189495823224 0.007138680596497241 -0.07177689236748513 0.19150043763423003
147200000.0 0.8231959435 -0.073204351 -9.995371827915461 -4.931418694852052 -9.490352346415411e-05 0.007155253541070488 -0.06312529 0.192373
148480000.0 0.8226442882137799 -0.08097726405597945 -10.146352817961228 -4.5780065645732755 0.00011835333791403799 0.007183238624368962 -0.05477162735165142 0.19273239546207085
149760000.0 0.8223082969391323 -0.0885821202865434 -10.284820387061558 -4.223168429349079 0.00033613570378603904 0.00727623400904236 -0.046113364898785224 0.19302001744375283
151040000.0 0.8218981114652454 -0.0965588563408248 -10.410261092881623 -3.864849488878752 0.0005710774832857345 0.007292789948934628 -0.037782727090358466 0.19291824045336017
152320000.0 0.8213089915535162 -0.10423575562315125 -10.51875044107236 -3.5035112085544173 0.0007785162979388253 0.007254385391570833 -0.029481540639852116 0.19185546412940446
153600000.0 0.8206948705 -0.11207033599999999 -10.616934174216944 -3.140609748181904 0.0010418993207273969 0.007296341920724538 -0.02109684 0.1907091
154880000.0 0.8202280426415993 -0.11975320698188711 -10.70351344094597 -2.7750101853041604 0.0012901225556194685 0.007287199320456023 -0.013265924103033021 0.18925665067143244
156160000.0 0.8194987182972929 -0.1274215973521578 -10.777917652395105 -2.4082377209229313 0.001475041414766674 0.0073155600025161735 -0.0049843048272864305 0.1870161228173861
157440000.0 0.8188732877132365 -0.1350384092205358 -10.839641431297132 -2.0413605490705824 0.001727931843730532 0.007251955986035428 0.0028695841785150696 0.18457658249738024
158720000.0 0.8180149506533295 -0.1423688812342813 -10.887919088341297 -1.6739208533506638 0.0018902933193320033 0.007246942420470216 0.010507224258424031 0.18240230774933422
160000000.0 0.817307157 -0.14981540249999997 -10.924653681071165 -1.3088832615166661 0.002182640148649393 0.007261831715690085 0.01793646 0.1790494
161280000.0 0.8163314265184227 -0.1571642406854052 -10.948639016405814 -0.942987161472147 0.0024052012258047317 0.007201417704089596 0.025223044300474503 0.17575060718334426
162560000.0 0.8153440051744727 -0.1647232780896674 -10.96179206724037 -0.5736521802213709 0.002545309973419182 0.007194657487143157 0.03219454883271148 0.17203643369133276
163840000.0 0.8141485328091732 -0.17198678850440544 -10.963514268275219 -0.2122647891055698 0.002824773879814086 0.007140608647176253 0.03919363954534837 0.16804685005722514
165120000.0 0.813329749247709 -0.17942389889235089 -10.95357710685895 0.15078758202669645 0.0030333067065738146 0.007114796255993745 0.04582373680331838 0.16380231438496642
166400000.0 0.8120990935 -0.18687199999999998 -10.930431521290918 0.5124397822800763 0.003233483910539392 0.006944448321878743 0.05209525 0.1594414
167680000.0 0.8107815437121381 -0.1939753016893419 -10.897599130834212 0.8692159504062298 0.003488064466749407 0.0069253690323161496 0.05815060222751483 0.1547376180322702
168960000.0 0.8096259402441189 -0.2011769998744717 -10.84877789834304 1.2246188540677823 0.0037188975396117265 0.006860017743108423 0.0642474938225273 0.14974857082948806
170240000.0 0.8082452629901493 -0.20800468850176776 -10.793561633711992 1.577154411713085 0.003956205831272778 0.006809598707612479 0.06974901632604445 0.14459658971203307
171520000.0 0.8068873011705193 -0.2155619260480634 -10.724240661990448 1.9281389186700695 0.0041674805134954 0.0067232724332235575 0.07505981207725666 0.13925423549332966
172800000.0 0.8054901485 -0.22258419499999998 -10.644802878809102 2.2737130979031646 0.004382187503279668 0.00661045011074054 0.08017405 0.1336612
174080000.0 0.8040547826782546 -0.22982602333658797 -10.556949178475852 2.6187936584191536 0.004579703255281357 0.0064732859040005026 0.08473591191144926 0.1278307628709965
175360000.0 0.8026626140797106 -0.23684143766520474 -10.458973056245128 2.9571680927329766 0.004737587366964966 0.006373657158661297 0.08901935855943235 0.12222745855413261
176640000.0 0.8011934186729681 -0.2438154847620975 -10.34499147553804 3.291467532215969 0.00498799046466753 0.006332799969589422 0.09299378743830312 0.11560388810875352
177920000.0 0.7994849325955301 -0.2510952916855683 -10.225303277868663 3.6224534875033667 0.005258565877989023 0.00614293265179413 0.09651979658390751 0.1096874641317378
179200000.0 0.7975781275 -0.2578962925 -10.09379310155 3.94671480213644 0.005453072156272735 0.006058697729939835 0.09978663 0.103259
180480000.0 0.7960457182222631 -0.2645546840555503 -9.951223072556575 4.26389531036022 0.00558337081072008 0.005918673300740561 0.10280481114343448 0.09653136024039316
181760000.0 0.7940080507205277 -0.27137441169561144 -9.801082125110279 4.577886011244312 0.005788622905468399 0.005756869032969151 0.10544891644733065 0.08993701595075006
183040000.0 0.7918367499836243 -0.278212441262563 -9.639948059493696 4.885667904609632 0.006024448185036276 0.005643810019435996 0.10770231779810015 0.08321798784074871
184320000.0 0.7902191603518467 -0.28501758177875547 -9.471850952852677 5.187244887535037 0.006206368765116057 0.005449250952977752 0.10958101143744264 0.07659556609455853
185600000.0 0.7877831534999999 -0.2918231065 -9.292080877762908 5.484224735467402 0.006396639051332648 0.005314851094616397 0.1112731 0.06970021
186880000.0 0.7857723323225985 -0.29844225466611424 -9.105694683857987 5.772284787415239 0.006596475661696384 0.005162996092862588 0.11235047190628798 0.06298865938057874
188160000.0 0.7835929129717277 -0.3049941646567804 -8.911472178840981 6.056347537387568 0.006706787211092784 0.0050326324973938704 0.11347277857811974 0.05611322948475975
189440000.0 0.7815072577985411 -0.3116403292214963 -8.70681775112658 6.332551442913516 0.006898795973270344 0.004801417387637074 0.114125674165982 0.049302520897228176
190720000.0 0.77905081176941 -0.3180971335551417 -8.494110992780564 6.601157047042508 0.007117810291619613 0.004633556689132293 0.1140893250140503 0.042269260196859934
192000000.0 0.77679873 -0.32465062 -8.274724561659054 6.86329982843096 0.0071799178498623455 0.004484610082056909 0.1141417 0.03580919
193280000.0 0.7744267176042192 -0.33105253633145054 -8.048016537056519 7.117491030633946 0.0074162781413273276 0.004234159200249405 0.11380725329434908 0.028868664316586523
194560000.0 0.7718893071854731 -0.3373061565210019 -7.81191111732087 7.36388127866983 0.007612203790886888 0.004000411152185387 0.1128661323345816 0.022218583485417102
195840000.0 0.7693267845472739 -0.3438144758131922 -7.571355807014609 7.603259674401443 0.007705169891371545 0.003855055521968567 0.11202292333892531 0.015665339508184353
197120000.0 0.7666650913027575 -0.3499998628892805 -7.321319022603785 7.835046046654779 0.007836983161531556 0.003640252736146466 0.1105995813137388 0.008879852861200205
198400000.0 0.763791367 -0.35637013149999996 -7.064097577480605 8.05666499257776 0.008050330517899856 0.0034253477896728154 0.1089053 0.002640972
199680000.0 0.7608181345885257 -0.3625151918439229 -6.8018979044917565 8.272363291176214 0.008128307888712813 0.0032062901611204903 0.10701163438413504 -0.003683489356560788
