# Hz S RI R 100

4.992000000000000e+07  8.0091920350444490e-01 -5.9680782294384871e-01 -1.2222133105881145e-02 -1.5011022546240630e-02 -1.5788929546273868e-03 -8.6973023025916881e-04 -3.4760364872115930e-04  6.0421681957781366e-05
                        -2.9613007843392518e-04  9.0377968516154399e-04 -1.4480370512295272e-03 -8.4643967343249514e-04 -7.1780148174994582e-04 -1.3728587209216759e-04 -2.2829507264787279e-04  1.0517347536139023e-04
                        -2.5607025379736865e-04  3.2364957975899436e-04 -3.0937785427987281e-04  2.1569002112315015e-04 -2.1025652363121096e-04  1.6508807469712590e-04 -5.9123316115547411e-05  1.2253914413509921e-04
                         4.7982181962977091e-05  2.0258853533035954e-04  2.1808667288828467e-05  1.8763406737024629e-04  2.8267677081420037e-05  1.3133271091348578e-04  4.1528357937644083e-05  6.3801193255063693e-05
                        -1.2223426685515217e-02 -1.5010229847530466e-02  7.9999118356852827e-01 -5.9770594590962112e-01 -1.2376601325408219e-02 -1.5066549055125609e-02 -1.5796804620614240e-03 -8.6993952453926231e-04
                        -1.4458841134815863e-03 -8.4612406423076867e-04 -5.4473621025211464e-04  7.0026398429790036e-04 -1.5502411057330221e-03 -8.6441496506575884e-04 -7.1732263928524003e-04 -1.3867277663442328e-04
                        -3.0797426441805996e-04  2.1473167609733381e-04 -3.7031503361602177e-04  3.0846769972613309e-04 -3.6358719463457160e-04  2.3356664521954529e-04 -2.1052076839029593e-04  1.6384973656375114e-04
                         2.1622053987391642e-05  1.8757373053437259e-04 -6.0705060235263320e-07  2.4124232214795463e-04  4.1419178475918348e-06  2.1560357038986037e-04  2.7853008310886172e-05  1.3182213708283789e-04
                        -1.5796855479758966e-03 -8.6991848010209037e-04 -1.2376601385852276e-02 -1.5066549212470760e-02  7.9999118348653087e-01 -5.9770594583583847e-01 -1.2223426797228662e-02 -1.5010228951882018e-02
                        -7.1728204436761784e-04 -1.3864088261028760e-04 -1.5501540353800073e-03 -8.6432007851092283e-04 -5.4473595364927106e-04  7.0026474451204341e-04 -1.4459706293928557e-03 -8.4623329554890734e-04
                        -2.1051161580693740e-04  1.6385219472642431e-04 -3.6357278786839628e-04  2.3357651419675610e-04 -3.7031390575210081e-04  3.0846344577886784e-04 -3.0798674535656656e-04  2.1471255672448854e-04
                         2.7845444311907746e-05  1.3180983576701374e-04  4.1438131595538427e-06  2.1559885523027511e-04 -6.0714276118873766e-07  2.4124249996954536e-04  2.1618991260089963e-05  1.8758382097143014e-04
                        -3.4760369921446724e-04  6.0421545908714660e-05 -1.5788890545455686e-03 -8.6974596911967177e-04 -1.2222133376507974e-02 -1.5011021723618486e-02  8.0091920322910259e-01 -5.9680782244303165e-01
                        -2.2829204471861691e-04  1.0517038610275892e-04 -7.1775315444786412e-04 -1.3728455151697133e-04 -1.4479467003539572e-03 -8.4635958016020100e-04 -2.9605531055604836e-04  9.0379846076704088e-04
                        -5.9123675847493716e-05  1.2252894148510762e-04 -2.1024376557097598e-04  1.6507607363771417e-04 -3.0934277023433236e-04  2.1568363080330891e-04 -2.5603993439153572e-04  3.2364134960674432e-04
                         4.1519798554738916e-05  6.3794139587359025e-05  2.8265313220973827e-05  1.3132187816562436e-04  2.1818128294858244e-05  1.8761996628940394e-04  4.7982071451189125e-05  2.0258876670748289e-04
                        -2.9585828145060498e-04  9.0367834307797975e-04 -1.4454555227896276e-03 -8.4657409178600707e-04 -7.1645269790530171e-04 -1.3854199138628676e-04 -2.2839722266056547e-04  1.0517336298097944e-04
                         8.0091984457778587e-01 -5.9686439664812951e-01 -1.2210843625744403e-02 -1.5054050175389090e-02 -1.5765769846196390e-03 -8.8639768020080337e-04 -3.5621583736806188e-04  5.3568868178755198e-05
                        -3.0765121435159663e-04  8.9260312355965757e-04 -1.4581780022241181e-03 -8.5944910922672790e-04 -7.2616153332943011e-04 -1.4263945091451670e-04 -2.3434487959076596e-04  1.0476475924586055e-04
                        -2.5609033290784891e-04  3.2345127752672783e-04 -3.0795908599703741e-04  2.1466680563343046e-04 -2.0974128828421808e-04  1.6367592142571303e-04 -5.9174790859997573e-05  1.2256621663849613e-04
                        -1.4484468269388821e-03 -8.4627925347690236e-04 -5.4470166222355581e-04  7.0017004880354558e-04 -1.5501816210075901e-03 -8.6439454103360213e-04 -7.1882371903286434e-04 -1.3747857121698527e-04
                        -1.2211471746319681e-02 -1.5053662216359669e-02  7.9997137958772480e-01 -5.9779235862280888e-01 -1.2380189869095332e-02 -1.5120393946820774e-02 -1.5775558894631891e-03 -8.8676867105368681e-04
                        -1.4586196909743669e-03 -8.5915289030917509e-04 -5.6632168974572457e-04  6.7849242344572677e-04 -1.5689479468392674e-03 -8.7955641175358466e-04 -7.2711388013693516e-04 -1.4288389693519000e-04
                        -3.0954306538566326e-04  2.1565309650620440e-04 -3.7036630801113511e-04  3.0842037606002628e-04 -3.6362166171615112e-04  2.3353313462863511e-04 -2.1114259769288571e-04  1.6528452302612190e-04
                        -7.1887229562445911e-04 -1.3747971932344592e-04 -1.5502701491978436e-03 -8.6448887522714408e-04 -5.4464830554593546e-04  7.0018360758920893e-04 -1.4483578722511747e-03 -8.4619856242014718e-04
                        -1.5775585086101082e-03 -8.8675780815458509e-04 -1.2380190007356386e-02 -1.5120393803473634e-02  7.9997137953494324e-01 -5.9779235858225732e-01 -1.2211471781894977e-02 -1.5053661850741147e-02
                        -7.2712244805997060e-04 -1.4287565705490508e-04 -1.5688582171098373e-03 -8.7946287361316132e-04 -5.6632313020770495e-04  6.7849302120174821e-04 -1.4586551478975255e-03 -8.5923935274529850e-04
                        -2.1113512189997150e-04  1.6527126653758842e-04 -3.6360725968039904e-04  2.3354305638416390e-04 -3.7036770796126711e-04  3.0842475757596362e-04 -3.0957833021434163e-04  2.1565930595746755e-04
                        -2.2839638581918125e-04  1.0517830045709168e-04 -7.1644021681725755e-04 -1.3856109076500125e-04 -1.4455436757324900e-03 -8.4668746764583356e-04 -2.9578351312020018e-04  9.0369733540453375e-04
                        -3.5621469337377212e-04  5.3563708271355928e-05 -1.5765743403463232e-03 -8.8640801370680478e-04 -1.2210843649096605e-02 -1.5054049774040727e-02  8.0091984493112678e-01 -5.9686439654021062e-01
                        -2.3434029512762152e-04  1.0476534162635533e-04 -7.2617152442240379e-04 -1.4263063116513620e-04 -1.4580892137809926e-03 -8.5935005937627131e-04 -3.0765798795465442e-04  8.9260246999707093e-04
                        -5.9174099356707750e-05  1.2255629867505922e-04 -2.0972718682115443e-04  1.6367979499372121e-04 -3.0794137022638470e-04  2.1468692944065070e-04 -2.5612345339812354e-04  3.2347031495000365e-04
                        -2.5612345339812365e-04  3.2347031495000397e-04 -3.0794137022638476e-04  2.1468692944065095e-04 -2.0972718682115446e-04  1.6367979499372104e-04 -5.9174099356707547e-05  1.2255629867505930e-04
                        -3.0765798795465409e-04  8.9260246999707071e-04 -1.4580892137809928e-03 -8.5935005937627185e-04 -7.2617152442240433e-04 -1.4263063116513579e-04 -2.3434029512762127e-04  1.0476534162635534e-04
                         8.0091984493112722e-01 -5.9686439654021084e-01 -1.2210843649096612e-02 -1.5054049774040738e-02 -1.5765743403463239e-03 -8.8640801370680391e-04 -3.5621469337377272e-04  5.3563708271355718e-05
                        -2.9578351312020099e-04  9.0369733540453419e-04 -1.4455436757324913e-03 -8.4668746764583313e-04 -7.1644021681725809e-04 -1.3856109076500190e-04 -2.2839638581918109e-04  1.0517830045709155e-04
                        -3.0957833021434173e-04  2.1565930595746755e-04 -3.7036770796126630e-04  3.0842475757596383e-04 -3.6360725968039931e-04  2.3354305638416335e-04 -2.1113512189997158e-04  1.6527126653758864e-04
                        -1.4586551478975259e-03 -8.5923935274529622e-04 -5.6632313020770560e-04  6.7849302120174908e-04 -1.5688582171098355e-03 -8.7946287361316089e-04 -7.2712244805997017e-04 -1.4287565705490478e-04
                        -1.2211471781894969e-02 -1.5053661850741166e-02  7.9997137953494291e-01 -5.9779235858225765e-01 -1.2380190007356396e-02 -1.5120393803473626e-02 -1.5775585086101088e-03 -8.8675780815458617e-04
                        -1.4483578722511727e-03 -8.4619856242014956e-04 -5.4464830554593578e-04  7.0018360758920990e-04 -1.5502701491978432e-03 -8.6448887522714603e-04 -7.1887229562445846e-04 -1.3747971932344603e-04
                        -2.1114259769288563e-04  1.6528452302612190e-04 -3.6362166171615041e-04  2.3353313462863551e-04 -3.7036630801113462e-04  3.0842037606002584e-04 -3.0954306538566294e-04  2.1565309650620472e-04
                        -7.2711388013693441e-04 -1.4288389693518900e-04 -1.5689479468392678e-03 -8.7955641175358401e-04 -5.6632168974572359e-04  6.7849242344572602e-04 -1.4586196909743656e-03 -8.5915289030917324e-04
                        -1.5775558894631876e-03 -8.8676867105368811e-04 -1.2380189869095322e-02 -1.5120393946820767e-02  7.9997137958772457e-01 -5.9779235862280844e-01 -1.2211471746319681e-02 -1.5053662216359665e-02
                        -7.1882371903286401e-04 -1.3747857121698635e-04 -1.5501816210075916e-03 -8.6439454103360105e-04 -5.4470166222355689e-04  7.0017004880354526e-04 -1.4484468269388815e-03 -8.4627925347690062e-04
                        -5.9174790859997641e-05  1.2256621663849618e-04 -2.0974128828421776e-04  1.6367592142571311e-04 -3.0795908599703719e-04  2.1466680563343019e-04 -2.5609033290784826e-04  3.2345127752672804e-04
                        -2.3434487959076580e-04  1.0476475924586066e-04 -7.2616153332943066e-04 -1.4263945091451689e-04 -1.4581780022241181e-03 -8.5944910922672790e-04 -3.0765121435159668e-04  8.9260312355965768e-04
                        -3.5621583736806205e-04  5.3568868178754825e-05 -1.5765769846196390e-03 -8.8639768020080272e-04 -1.2210843625744407e-02 -1.5054050175389060e-02  8.0091984457778598e-01 -5.9686439664812974e-01
                        -2.2839722266056577e-04  1.0517336298097924e-04 -7.1645269790530214e-04 -1.3854199138628651e-04 -1.4454555227896278e-03 -8.4657409178600935e-04 -2.9585828145060401e-04  9.0367834307797964e-04
                         4.7982071451189165e-05  2.0258876670748292e-04  2.1818128294858373e-05  1.8761996628940383e-04  2.8265313220973817e-05  1.3132187816562426e-04  4.1519798554739024e-05  6.3794139587358998e-05
                        -2.5603993439153529e-04  3.2364134960674427e-04 -3.0934277023433280e-04  2.1568363080330918e-04 -2.1024376557097563e-04  1.6507607363771415e-04 -5.9123675847493614e-05  1.2252894148510757e-04
                        -2.9605531055604880e-04  9.0379846076704109e-04 -1.4479467003539583e-03 -8.4635958016020046e-04 -7.1775315444786434e-04 -1.3728455151697016e-04 -2.2829204471861713e-04  1.0517038610275893e-04
                         8.0091920322910337e-01 -5.9680782244303221e-01 -1.2222133376507993e-02 -1.5011021723618487e-02 -1.5788890545455697e-03 -8.6974596911967416e-04 -3.4760369921446718e-04  6.0421545908714571e-05
                         2.1618991260090024e-05  1.8758382097143039e-04 -6.0714276118850727e-07  2.4124249996954533e-04  4.1438131595536665e-06  2.1559885523027519e-04  2.7845444311907919e-05  1.3180983576701377e-04
                        -3.0798674535656662e-04  2.1471255672448882e-04 -3.7031390575210146e-04  3.0846344577886795e-04 -3.6357278786839595e-04  2.3357651419675631e-04 -2.1051161580693738e-04  1.6385219472642420e-04
                        -1.4459706293928547e-03 -8.4623329554890929e-04 -5.4473595364927117e-04  7.0026474451204395e-04 -1.5501540353800097e-03 -8.6432007851092066e-04 -7.1728204436761816e-04 -1.3864088261028790e-04
                        -1.2223426797228647e-02 -1.5010228951882044e-02  7.9999118348652976e-01 -5.9770594583583825e-01 -1.2376601385852275e-02 -1.5066549212470779e-02 -1.5796855479758964e-03 -8.6991848010209145e-04
                         2.7853008310886233e-05  1.3182213708283811e-04  4.1419178475920652e-06  2.1560357038986037e-04 -6.0705060235275517e-07  2.4124232214795482e-04  2.1622053987392035e-05  1.8757373053437262e-04
                        -2.1052076839029582e-04  1.6384973656375138e-04 -3.6358719463457215e-04  2.3356664521954562e-04 -3.7031503361602145e-04  3.0846769972613298e-04 -3.0797426441805996e-04  2.1473167609733389e-04
                        -7.1732263928524058e-04 -1.3867277663442385e-04 -1.5502411057330243e-03 -8.6441496506575884e-04 -5.4473621025211323e-04  7.0026398429790134e-04 -1.4458841134815873e-03 -8.4612406423077041e-04
                        -1.5796804620614232e-03 -8.6993952453926523e-04 -1.2376601325408257e-02 -1.5066549055125601e-02  7.9999118356852916e-01 -5.9770594590962178e-01 -1.2223426685515213e-02 -1.5010229847530469e-02
                         4.1528357937644042e-05  6.3801193255063653e-05  2.8267677081420098e-05  1.3133271091348567e-04  2.1808667288828426e-05  1.8763406737024629e-04  4.7982181962977403e-05  2.0258853533035930e-04
                        -5.9123316115547207e-05  1.2253914413509919e-04 -2.1025652363121098e-04  1.6508807469712596e-04 -3.0937785427987238e-04  2.1569002112315026e-04 -2.5607025379736838e-04  3.2364957975899371e-04
                        -2.2829507264787274e-04  1.0517347536139015e-04 -7.1780148174994647e-04 -1.3728587209216688e-04 -1.4480370512295268e-03 -8.4643967343249298e-04 -2.9613007843392561e-04  9.0377968516154421e-04
                        -3.4760364872115940e-04  6.0421681957780878e-05 -1.5788929546273881e-03 -8.6973023025916621e-04 -1.2222133105881135e-02 -1.5011022546240645e-02  8.0091920350444501e-01 -5.9680782294384860e-01
5.120000000000000e+07  7.8749593148004360e-01 -6.1412694158984582e-01 -1.3344826884125215e-02 -1.5527904018959909e-02 -1.7500756673341463e-03 -8.5138409798783741e-04 -3.7251034772193094e-04  9.8140906688270490e-05
                        -4.1308215928642281e-04  9.3876486811908652e-04 -1.6305775645537551e-03 -8.4283769702556610e-04 -7.9388361637066837e-04 -9.4037714167889127e-05 -2.3917936297572259e-04  1.3983907328459974e-04
                        -2.7058913909562999e-04  3.8180419522817230e-04 -3.2995184233466614e-04  2.7122805150209045e-04 -2.1479401043253353e-04  2.0710649233982012e-04 -4.9276980855746282e-05  1.4387124386551118e-04
                         7.6120716103756516e-05  2.2613281961661295e-04  4.5123737123001785e-05  2.0961273917277873e-04  4.9865686447047409e-05  1.4380060002913654e-04  5.6379586100674026e-05  6.5196627163937947e-05
                        -1.3345563471479003e-02 -1.5527108927045766e-02  7.8645538861174147e-01 -6.1505012694904215e-01 -1.3518422801425459e-02 -1.5576325440552145e-02 -1.7510510193270235e-03 -8.5148056884779466e-04
                        -1.6280336741358353e-03 -8.4287187614838304e-04 -7.0264477186471168e-04  7.3405794229655023e-04 -1.7456987502644512e-03 -8.5200403305079903e-04 -7.9355833551076986e-04 -9.5657568874103446e-05
                        -3.2858315627922558e-04  2.6986194131657448e-04 -3.9848011239218637e-04  3.7929026992010890e-04 -3.8787527100045692e-04  2.9870119245778843e-04 -2.1533685809038903e-04  2.0576332922297327e-04
                         4.4885195548612962e-05  2.0958022045623954e-04  2.8217787394692692e-05  2.7639953627494376e-04  3.0051064226904239e-05  2.4385016968256636e-04  4.9501998641219990e-05  1.4443058773872029e-04
                        -1.7510580123296020e-03 -8.5145698448744307e-04 -1.3518422699152016e-02 -1.5576325533832506e-02  7.8645538864956166e-01 -6.1505012694317573e-01 -1.3345563307003996e-02 -1.5527107476910072e-02
                        -7.9357559304435877e-04 -9.5640404676157709e-05 -1.7455724606290158e-03 -8.5190444346120125e-04 -7.0263017612126795e-04  7.3401117140181951e-04 -1.6281515795512145e-03 -8.4300059452651038e-04
                        -2.1532425627812058e-04  2.0576767281011525e-04 -3.8785626976216585e-04  2.9870785120680269e-04 -3.9848002789819406e-04  3.7929142608511437e-04 -3.2859871824465173e-04  2.6984282147557881e-04
                         4.9495997703311087e-05  1.4441909521168119e-04  3.0051719492163535e-05  2.4385058755252656e-04  2.8217742618571445e-05  2.7639937579491085e-04  4.4880139801095739e-05  2.0959399408044751e-04
                        -3.7251031886844982e-04  9.8140846968678683e-05 -1.7500686286748804e-03 -8.5140783466999674e-04 -1.3344826746233432e-02 -1.5527902625918515e-02  7.8749593107148674e-01 -6.1412694078631047e-01
                        -2.3917324665701165e-04  1.3982649773677450e-04 -7.9384176287867819e-04 -9.4037228792935085e-05 -1.6304496184553221e-03 -8.4274281412348006e-04 -4.1299460564791981e-04  9.3874055079571500e-04
                        -4.9279314547302688e-05  1.4386679655238238e-04 -2.1478054393678033e-04  2.0709193570242625e-04 -3.2991776322861040e-04  2.7121977813822265e-04 -2.7055806174950065e-04  3.8178865307324878e-04
                         5.6367470582172450e-05  6.5188365865157384e-05  4.9862995261869471e-05  1.4379514745281664e-04  4.5126800991001433e-05  2.0960375349159553e-04  7.6125417700098556e-05  2.2613403461053822e-04
                        -4.1280414634803239e-04  9.3858790427703287e-04 -1.6276545081717665e-03 -8.4332196044394265e-04 -7.9251122746084571e-04 -9.5658229670146302e-05 -2.3929228670140602e-04  1.3985905757469064e-04
                         7.8749181218696973e-01 -6.1418773603331833e-01 -1.3337183368697049e-02 -1.5575545252856071e-02 -1.7509194789676638e-03 -8.6820941908108905e-04 -3.8341891598685939e-04  9.2935425026935946e-05
                        -4.2717940519049202e-04  9.2769121277524633e-04 -1.6436866029881563e-03 -8.5562268926468179e-04 -8.0407298516601828e-04 -9.8053751966000526e-05 -2.4597282483772640e-04  1.4088804633915103e-04
                        -2.7064923923576290e-04  3.8159996525481731e-04 -3.2853829243231840e-04  2.6984189197843420e-04 -2.1448698565721479e-04  2.0542135587746997e-04 -4.9328292397559289e-05  1.4391689940590165e-04
                        -1.6310160794454805e-03 -8.4269289602627556e-04 -7.0260182349129194e-04  7.3397225046633978e-04 -1.7455910047717966e-03 -8.5198024076047689e-04 -7.9508398582775431e-04 -9.4065782578694394e-05
                        -1.3338249068909520e-02 -1.5575374612385789e-02  7.8642774816050831e-01 -6.1514901884913153e-01 -1.3529562211005914e-02 -1.5634024018097881e-02 -1.7520802931169507e-03 -8.6845831506815680e-04
                        -1.6440190763747713e-03 -8.5531268907639208e-04 -7.2976605423130452e-04  7.1287570112788423e-04 -1.7688041496513695e-03 -8.6568665742897113e-04 -8.0519128257188443e-04 -9.8167919769817354e-05
                        -3.3015799943236047e-04  2.7117031217267345e-04 -3.9855016793481759e-04  3.7926508143686826e-04 -3.8791945696055227e-04  2.9866586454236211e-04 -2.1575545999806724e-04  2.0749135481242946e-04
                        -7.9512415269446159e-04 -9.4066909981374341e-05 -1.7457153021152628e-03 -8.5207997884350272e-04 -7.0258772869135364e-04  7.3392750425785194e-04 -1.6308383011898557e-03 -8.4258934999975978e-04
                        -1.7520873391235184e-03 -8.6846883156180667e-04 -1.3529560571182705e-02 -1.5634022554072469e-02  7.8642775422056654e-01 -6.1514900416939033e-01 -1.3338108832027301e-02 -1.5575853622620657e-02
                        -8.0520196505255010e-04 -9.8158650696529988e-05 -1.7687280723595754e-03 -8.6559177525711792e-04 -7.2976488601012815e-04  7.1287658765691660e-04 -1.6441450208882328e-03 -8.5541683148241581e-04
                        -2.1574693210144299e-04  2.0747556367735443e-04 -3.8790008384168809e-04  2.9867229483116669e-04 -3.9854511778485694e-04  3.7926488550134817e-04 -3.3019860202282647e-04  2.7118155020793450e-04
