# Hz S RI R 100

4.992000000000000e+07  8.0051321315687718e-01 -5.9734931462774710e-01 -2.9922607712079595e-04  9.0351086641536431e-04 -2.5715807055854117e-04  3.2459101416016181e-04  4.8099797162015226e-05  2.0326898476490522e-04
                        -1.2252724344261029e-02 -1.5024644405608958e-02 -1.4527036740218566e-03 -8.4691451291661461e-04 -3.1042647624084590e-04  2.1667244486916104e-04  2.1933818470649452e-05  1.8832531259271320e-04
                        -1.5830611834845940e-03 -8.6947115528968511e-04 -7.1968567429872229e-04 -1.3647290744494365e-04 -2.1065493279257528e-04  1.6600897141888493e-04  2.8533003284779190e-05  1.3183074830722073e-04
                        -3.4823348242642816e-04  6.1173789823080289e-05 -2.2863866753334279e-04  1.0590638916980136e-04 -5.9036564206608288e-05  1.2307686931662567e-04  4.1813074786403742e-05  6.4008867399332497e-05
                        -2.9894409261441878e-04  9.0335867827899085e-04  8.0051392498820129e-01 -5.9740583021197513e-01 -3.1077019308211630e-04  8.9225884968546299e-04 -2.5718284842003692e-04  3.2439202688880201e-04
                        -1.4501318524469294e-03 -8.4706203923146301e-04 -1.2240814558073045e-02 -1.5067367045263571e-02 -1.4629156612724567e-03 -8.5995997754097610e-04 -3.0900708725535033e-04  2.1564310653118818e-04
                        -7.1834195306015819e-04 -1.3773579429511947e-04 -1.5808662628798750e-03 -8.8618362825055945e-04 -7.2814328924039671e-04 -1.4183184542057258e-04 -2.1014781392472148e-04  1.6458741576844132e-04
                        -2.2873955226569275e-04  1.0590644690270415e-04 -3.5691100309269050e-04  5.4353456824106131e-05 -2.3471183848890496e-04  1.0551868993242464e-04 -5.9087300430560162e-05  1.2310432851800104e-04
                        -2.5721609210053824e-04  3.2441116258830592e-04 -3.1077019967294575e-04  8.9225887267254875e-04  8.0051392494045215e-01 -5.9740582969421840e-01 -2.9887083101455666e-04  9.0337822089448677e-04
                        -3.0898823640770678e-04  2.1565740596960370e-04 -1.4628274906704013e-03 -8.5986567916332868e-04 -1.2240814796277331e-02 -1.5067366510710523e-02 -1.4501651878316459e-03 -8.4716205669356471e-04
                        -2.1013880513259526e-04  1.6459053474770564e-04 -7.2810027084149547e-04 -1.4181013699347933e-04 -1.5808650276137890e-03 -8.8618861171843068e-04 -7.1833070470441580e-04 -1.3775448698918969e-04
                        -5.9086947813778949e-05  1.2309427309091248e-04 -2.3471024991164469e-04  1.0552056707166968e-04 -3.5690971991202624e-04  5.4348170958713476e-05 -2.2874559261448118e-04  1.0591079305276469e-04
                         4.8098438378736353e-05  2.0327439932468265e-04 -2.5712791643002465e-04  3.2458284853931934e-04 -2.9916008838964860e-04  9.0352887214671380e-04  8.0051319274530186e-01 -5.9734932311674438e-01
                         2.1941916817564960e-05  1.8831642918677580e-04 -3.1039139561369927e-04  2.1666655375827683e-04 -1.4526136082271611e-03 -8.4683365436725761e-04 -1.2252322235573387e-02 -1.5023987306126939e-02
                         2.8530588756183790e-05  1.3181989843309846e-04 -2.1064635897319401e-04  1.6599100252387834e-04 -7.1969344278395770e-04 -1.3647887073882102e-04 -1.5830761246774358e-03 -8.6950128162664893e-04
                         4.1809747913022596e-05  6.4003057227718878e-05 -5.9036837106599928e-05  1.2306710222698876e-04 -2.2863215086619794e-04  1.0589699558430856e-04 -3.4823554523346690e-04  6.1173723377535449e-05
                        -1.2253487462693747e-02 -1.5023727085838356e-02 -1.4505575434227745e-03 -8.4661613057844293e-04 -3.0902107750292582e-04  2.1570184916245124e-04  2.1747550918091698e-05  1.8826451180173286e-04
                         7.9957939430236491e-01 -5.9824515388010913e-01 -5.4888138475897206e-04  6.9994996735678696e-04 -3.7180472543237210e-04  3.0963262007576900e-04 -5.7701205286158903e-07  2.4215538520875606e-04
                        -1.2407003352442450e-02 -1.5079871336782222e-02 -1.5552625309276560e-03 -8.6468511157329424e-04 -3.6476579551368712e-04  2.3476224581777834e-04  4.2811711176582733e-06  2.1644470321649189e-04
                        -1.5838613844313771e-03 -8.6967539479058866e-04 -7.1921041243983464e-04 -1.3786319500590000e-04 -2.1093138134948281e-04  1.6475842343577238e-04  2.8118640294950355e-05  1.3231869157024801e-04
                        -1.4531153656085192e-03 -8.4674752230164715e-04 -1.2241970844660638e-02 -1.5067107968001044e-02 -1.4633051762070750e-03 -8.5965792292272305e-04 -3.1058955650317113e-04  2.1663013418395463e-04
                        -5.4879500067156256e-04  6.9986808220808591e-04  7.9956106275378580e-01 -5.9833681361801672e-01 -5.7055459389389091e-04  6.7811293515232345e-04 -3.7185523733996987e-04  3.0958005511145181e-04
                        -1.5551492237465623e-03 -8.6465318052128938e-04 -1.2410913955351734e-02 -1.5133539454901998e-02 -1.5740163901413376e-03 -8.7984247819516753e-04 -3.6480028354075975e-04  2.3472870507130060e-04
                        -7.2076263179525956e-04 -1.3667260511094687e-04 -1.5818301170807732e-03 -8.8655571057186179e-04 -7.2909275210245820e-04 -1.4207815339572388e-04 -2.1154506769991376e-04  1.6620315375627428e-04
                        -3.1062096555165871e-04  2.1664278928102640e-04 -1.4633933574940863e-03 -8.5975225784235823e-04 -1.2241971008753804e-02 -1.5067107565058940e-02 -1.4530236811738035e-03 -8.4666804923667687e-04
                        -3.7185767883269368e-04  3.0958929885555552e-04 -5.7055463897095430e-04  6.7811289753925399e-04  7.9956106268682725e-01 -5.9833681345906786e-01 -5.4879804387532262e-04  6.9986947724221503e-04
                        -3.6478466632736399e-04  2.3473356360399474e-04 -1.5739296732514905e-03 -8.7974797421307605e-04 -1.2410913863248069e-02 -1.5133539568433430e-02 -1.5552379797926612e-03 -8.6474724624877953e-04
                        -2.1153731986254669e-04  1.6619015214614153e-04 -7.2904976240919833e-04 -1.4205648459065886e-04 -1.5818311949362218e-03 -8.8655044082009598e-04 -7.2075794437287660e-04 -1.3666126969589341e-04
                         2.1743383608397175e-05  1.8827989638809634e-04 -3.0903480299562363e-04  2.1568801379514353e-04 -1.4505936447326694e-03 -8.4671160527220127e-04 -1.2253486882690260e-02 -1.5023726280469163e-02
                        -5.7735209174680834e-07  2.4215515041818922e-04 -3.7180371966728326e-04  3.0962827063588170e-04 -5.4882978000241457e-04  6.9996412475178287e-04  7.9957937384821021e-01 -5.9824516253752424e-01
                         4.2817231865246709e-06  2.1644530561074608e-04 -3.6475007543767895e-04  2.3476706038820554e-04 -1.5551716357891819e-03 -8.6459662993556619e-04 -1.2407000771148521e-02 -1.5079871288655618e-02
                         2.8114999061672430e-05  1.3231300970262226e-04 -2.1092225243453532e-04  1.6476138823783682e-04 -7.1922018212481915e-04 -1.3784944543353403e-04 -1.5838665131642630e-03 -8.6965430071272586e-04
                        -1.5838665131642643e-03 -8.6965430071272640e-04 -7.1922018212481926e-04 -1.3784944543353389e-04 -2.1092225243453530e-04  1.6476138823783641e-04  2.8114999061672565e-05  1.3231300970262217e-04
                        -1.2407000771148542e-02 -1.5079871288655617e-02 -1.5551716357891823e-03 -8.6459662993556489e-04 -3.6475007543767862e-04  2.3476706038820614e-04  4.2817231865243998e-06  2.1644530561074586e-04
                         7.9957937384821021e-01 -5.9824516253752413e-01 -5.4882978000241479e-04  6.9996412475178103e-04 -3.7180371966728332e-04  3.0962827063588149e-04 -5.7735209174680834e-07  2.4215515041818938e-04
                        -1.2253486882690259e-02 -1.5023726280469172e-02 -1.4505936447326701e-03 -8.4671160527219987e-04 -3.0903480299562331e-04  2.1568801379514351e-04  2.1743383608397094e-05  1.8827989638809631e-04
                        -7.2075794437287649e-04 -1.3666126969589365e-04 -1.5818311949362207e-03 -8.8655044082009598e-04 -7.2904976240919855e-04 -1.4205648459065915e-04 -2.1153731986254669e-04  1.6619015214614172e-04
                        -1.5552379797926618e-03 -8.6474724624878104e-04 -1.2410913863248080e-02 -1.5133539568433423e-02 -1.5739296732514925e-03 -8.7974797421307290e-04 -3.6478466632736416e-04  2.3473356360399430e-04
                        -5.4879804387532208e-04  6.9986947724221557e-04  7.9956106268682814e-01 -5.9833681345906808e-01 -5.7055463897095408e-04  6.7811289753925432e-04 -3.7185767883269325e-04  3.0958929885555563e-04
                        -1.4530236811738030e-03 -8.4666804923667893e-04 -1.2241971008753827e-02 -1.5067107565058947e-02 -1.4633933574940859e-03 -8.5975225784235714e-04 -3.1062096555165871e-04  2.1664278928102613e-04
                        -2.1154506769991397e-04  1.6620315375627444e-04 -7.2909275210245874e-04 -1.4207815339572360e-04 -1.5818301170807728e-03 -8.8655571057186288e-04 -7.2076263179526011e-04 -1.3667260511094563e-04
                        -3.6480028354076024e-04  2.3472870507130079e-04 -1.5740163901413378e-03 -8.7984247819516699e-04 -1.2410913955351759e-02 -1.5133539454901986e-02 -1.5551492237465617e-03 -8.6465318052128949e-04
                        -3.7185523733996971e-04  3.0958005511145159e-04 -5.7055459389389199e-04  6.7811293515232193e-04  7.9956106275378613e-01 -5.9833681361801672e-01 -5.4879500067156180e-04  6.9986808220808515e-04
                        -3.1058955650317135e-04  2.1663013418395425e-04 -1.4633051762070770e-03 -8.5965792292272175e-04 -1.2241970844660627e-02 -1.5067107968001054e-02 -1.4531153656085188e-03 -8.4674752230164672e-04
                         2.8118640294950348e-05  1.3231869157024788e-04 -2.1093138134948289e-04  1.6475842343577221e-04 -7.1921041243983410e-04 -1.3786319500590029e-04 -1.5838613844313780e-03 -8.6967539479058692e-04
                         4.2811711176582597e-06  2.1644470321649192e-04 -3.6476579551368674e-04  2.3476224581777863e-04 -1.5552625309276564e-03 -8.6468511157329294e-04 -1.2407003352442431e-02 -1.5079871336782211e-02
                        -5.7701205286162969e-07  2.4215538520875609e-04 -3.7180472543237226e-04  3.0963262007576819e-04 -5.4888138475897260e-04  6.9994996735678566e-04  7.9957939430236502e-01 -5.9824515388010868e-01
                         2.1747550918091637e-05  1.8826451180173277e-04 -3.0902107750292545e-04  2.1570184916245162e-04 -1.4505575434227732e-03 -8.4661613057844315e-04 -1.2253487462693748e-02 -1.5023727085838346e-02
                        -3.4823554523346706e-04  6.1173723377535422e-05 -2.2863215086619794e-04  1.0589699558430853e-04 -5.9036837106600009e-05  1.2306710222698873e-04  4.1809747913022685e-05  6.4003057227718824e-05
                        -1.5830761246774360e-03 -8.6950128162664926e-04 -7.1969344278395781e-04 -1.3647887073882042e-04 -2.1064635897319399e-04  1.6599100252387872e-04  2.8530588756183759e-05  1.3181989843309849e-04
                        -1.2252322235573401e-02 -1.5023987306126934e-02 -1.4526136082271593e-03 -8.4683365436726021e-04 -3.1039139561369949e-04  2.1666655375827710e-04  2.1941916817564879e-05  1.8831642918677572e-04
                         8.0051319274530208e-01 -5.9734932311674482e-01 -2.9916008838964801e-04  9.0352887214671445e-04 -2.5712791643002465e-04  3.2458284853931966e-04  4.8098438378736360e-05  2.0327439932468265e-04
                        -2.2874559261448142e-04  1.0591079305276481e-04 -3.5690971991202662e-04  5.4348170958713524e-05 -2.3471024991164472e-04  1.0552056707166955e-04 -5.9086947813778841e-05  1.2309427309091257e-04
                        -7.1833070470441688e-04 -1.3775448698918934e-04 -1.5808650276137894e-03 -8.8618861171842959e-04 -7.2810027084149655e-04 -1.4181013699347873e-04 -2.1013880513259516e-04  1.6459053474770564e-04
                        -1.4501651878316476e-03 -8.4716205669356330e-04 -1.2240814796277312e-02 -1.5067366510710542e-02 -1.4628274906704020e-03 -8.5986567916333009e-04 -3.0898823640770684e-04  2.1565740596960349e-04
                        -2.9887083101455780e-04  9.0337822089448698e-04  8.0051392494045159e-01 -5.9740582969421829e-01 -3.1077019967294575e-04  8.9225887267254788e-04 -2.5721609210053824e-04  3.2441116258830603e-04
                        -5.9087300430560067e-05  1.2310432851800110e-04 -2.3471183848890507e-04  1.0551868993242457e-04 -3.5691100309269040e-04  5.4353456824105873e-05 -2.2873955226569262e-04  1.0590644690270429e-04
                        -2.1014781392472134e-04  1.6458741576844130e-04 -7.2814328924039639e-04 -1.4183184542057239e-04 -1.5808662628798774e-03 -8.8618362825055794e-04 -7.1834195306015711e-04 -1.3773579429511950e-04
                        -3.0900708725535011e-04  2.1564310653118826e-04 -1.4629156612724536e-03 -8.5995997754097740e-04 -1.2240814558073014e-02 -1.5067367045263581e-02 -1.4501318524469281e-03 -8.4706203923146301e-04
                        -2.5718284842003692e-04  3.2439202688880158e-04 -3.1077019308211538e-04  8.9225884968546321e-04  8.0051392498820118e-01 -5.9740583021197513e-01 -2.9894409261441862e-04  9.0335867827899042e-04
                         4.1813074786403749e-05  6.4008867399332469e-05 -5.9036564206608281e-05  1.2307686931662561e-04 -2.2863866753334260e-04  1.0590638916980113e-04 -3.4823348242642800e-04  6.1173789823080492e-05
                         2.8533003284779152e-05  1.3183074830722070e-04 -2.1065493279257523e-04  1.6600897141888491e-04 -7.1968567429872218e-04 -1.3647290744494311e-04 -1.5830611834845912e-03 -8.6947115528968467e-04
                         2.1933818470649601e-05  1.8832531259271306e-04 -3.1042647624084622e-04  2.1667244486916026e-04 -1.4527036740218551e-03 -8.4691451291661482e-04 -1.2252724344261012e-02 -1.5024644405608949e-02
                         4.8099797162015097e-05  2.0326898476490514e-04 -2.5715807055854106e-04  3.2459101416016181e-04 -2.9922607712079547e-04  9.0351086641536388e-04  8.0051321315687718e-01 -5.9734931462774710e-01
5.120000000000000e+07  7.8704642622265697e-01 -6.1469818827114275e-01 -4.1676210611904833e-04  9.3862658008508589e-04 -2.7175552171366645e-04  3.8300139914390104e-04  7.6348018196050577e-05  2.2690653595528623e-04
                        -1.3378738872713875e-02 -1.5541309772098218e-02 -1.6359218557389194e-03 -8.4305872134622954e-04 -3.3105154807376634e-04  2.7247325318612318e-04  4.5365127086480916e-05  2.1039144843038469e-04
                        -1.7547922149967526e-03 -8.5080583429615435e-04 -7.9596390543958085e-04 -9.2931393472671337e-05 -2.1513822622968047e-04  2.0820653054179317e-04  5.0255508861884608e-05  1.4433071940289058e-04
                        -3.7315101494543698e-04  9.9078760410840607e-05 -2.3948202497850660e-04  1.4070914237647751e-04 -4.9098208415448999e-05  1.4447249536195920e-04  5.6745846278712661e-05  6.5383496617770379e-05
                        -4.1648325321773101e-04  9.3844922879498908e-04  7.8704242817363956e-01 -6.1475889954216290e-01 -4.3090818957435261e-04  9.2756309731618924e-04 -2.7181504176242600e-04  3.8279722423881148e-04
                        -1.6330039923198676e-03 -8.4353993904201562e-04 -1.3371238996617688e-02 -1.5589606918427866e-02 -1.6490497917247091e-03 -8.5587185972064951e-04 -3.2964026346439708e-04  2.7107739821499049e-04
                        -7.9463232437039532e-04 -9.4574186754126425e-05 -1.7557342853612629e-03 -8.6765451651608927e-04 -8.0620365278671815e-04 -9.6936528758238713e-05 -2.1483522602529866e-04  2.0651792831225433e-04
                        -2.3959533721912746e-04  1.4073342460011853e-04 -3.8412426271848099e-04  9.3922764843660871e-05 -2.4629392712407534e-04  1.4179499806749648e-04 -4.9151165642887926e-05  1.4452264826696418e-04
                        -2.7184436344813799e-04  3.8282345838078305e-04 -4.3091144941786704e-04  9.2756089243139052e-04  7.8704242858194373e-01 -6.1475889931025618e-01 -4.1640245630616279e-04  9.3847553241393729e-04
                        -3.2961639860685995e-04  2.7109783531060420e-04 -1.6489732377210804e-03 -8.5577750456476936e-04 -1.3371238880034150e-02 -1.5589606660250169e-02 -1.6331205552626116e-03 -8.4367657557080566e-04
                        -2.1482297265707536e-04  2.0652260681737255e-04 -8.0621573968323328e-04 -9.6928458209736055e-05 -1.7557327766984830e-03 -8.6765933172890455e-04 -7.9466534742009915e-04 -9.4605414916825689e-05
                        -4.9152201338995152e-05  1.4451351114394280e-04 -2.4629164096609107e-04  1.4179640953539547e-04 -3.8412412493060022e-04  9.3922604715400773e-05 -2.3959902199759448e-04  1.4074014158528092e-04
                         7.6352815608077024e-05  2.2690791360496437e-04 -2.7172411153468735e-04  3.8298594900013886e-04 -4.1668473810890766e-04  9.3865064114462054e-04  7.8704642571794603e-01 -6.1469818733800163e-01
                         4.5369731950273265e-05  2.1037766589125751e-04 -3.3101629051290800e-04  2.7245992984656516e-04 -1.6357949457233983e-03 -8.4296525146081245e-04 -1.3378738894323370e-02 -1.5541308663693982e-02
                         5.0249425462496275e-05  1.4431948013821636e-04 -2.1512632010916444e-04  2.0819698357314693e-04 -7.9592231547318936e-04 -9.2931124994321922e-05 -1.7547852830159508e-03 -8.5082940537268485e-04
                         5.6733760946444013e-05  6.5375247601156676e-05 -4.9100994075498140e-05  1.4446810372990902e-04 -2.3947825355326083e-04  1.4070221414454634e-04 -3.7315100148217295e-04  9.9078698911178717e-05
                        -1.3379953567803148e-02 -1.5540658471958296e-02 -1.6333857378259646e-03 -8.4309320686771702e-04 -3.2968136363995427e-04  2.7109668746485747e-04  4.5121612336782249e-05  2.1035686027220078e-04
                         7.8600250133095995e-01 -6.1562087447312885e-01 -7.0753881257807586e-04  7.3401275977964743e-04 -4.0008773369362412e-04  3.8081793883811661e-04  2.8387921730284225e-05  2.7745476588902235e-04
                        -1.3553545615681478e-02 -1.5589735985011389e-02 -1.7514124080854623e-03 -8.5194626656782382e-04 -3.8909297039527570e-04  3.0020870707764887e-04  3.0330095441467368e-05  2.4480269375432647e-04
                        -1.7557521394126949e-03 -8.5090514975260929e-04 -7.9568015091796345e-04 -9.4571514781175613e-05 -2.1569024597659398e-04  2.0686133432153868e-04  4.9886687390316959e-05  1.4495752309510033e-04
                        -1.6363595818093338e-03 -8.4291443662363606e-04 -1.3372302906361717e-02 -1.5589438351145153e-02 -1.6494318681662162e-03 -8.5557222801254838e-04 -3.3125591559017000e-04  2.7241103538726014e-04
                        -7.0748416077738379e-04  7.3388128565764904e-04  7.8597033219866175e-01 -6.1572111707684218e-01 -7.3474999143805419e-04  7.1278319298678089e-04 -4.0013819956444507e-04  3.8074657067775305e-04
                        -1.7513044331642657e-03 -8.5192028599259098e-04 -1.3564270242015165e-02 -1.5647574682202355e-02 -1.7746199525290277e-03 -8.6566123912615442e-04 -3.8913642047959146e-04  3.0017512600680939e-04
                        -7.9716251164888615e-04 -9.2957589809564129e-05 -1.7568998180566733e-03 -8.6791516028371135e-04 -8.0736746711694216e-04 -9.7062063338676074e-05 -2.1610133651306683e-04  2.0859854104507514e-04
                        -3.3129708530669485e-04  2.7242103306540573e-04 -1.6495559978963650e-03 -8.5567653189003385e-04 -1.3372303028548287e-02 -1.5589437909793391e-02 -1.6361842460373963e-03 -8.4281295627039649e-04
                        -4.0015268313822700e-04  3.8079314443439385e-04 -7.3474875442731307e-04  7.1278271843567957e-04  7.8597033188229604e-01 -6.1572111685331010e-01 -7.0748501131558345e-04  7.3388339905436383e-04
                        -3.8911746982126866e-04  3.0018168657868166e-04 -1.7744972926729973e-03 -8.6555262440008449e-04 -1.3564270447804682e-02 -1.5647574602521041e-02 -1.7513799098061202e-03 -8.5201093390270717e-04
                        -2.1609304508915641e-04  2.0858306559888297e-04 -8.0733324860360659e-04 -9.7039190853885095e-05 -1.7569013611452875e-03 -8.6791037812794102e-04 -7.9720422789688087e-04 -9.2957962091192451e-05
